
T0EDC 000:284 SEGGER J-Link V5.12e Log File (0001ms, 0264ms total)
T0EDC 000:284 DLL Compiled: Apr 29 2016 15:03:58 (0001ms, 0264ms total)
T0EDC 000:284 Logging started @ 2018-12-03 11:06 (0001ms, 0264ms total)
T0EDC 000:285 JLINK_SetWarnOutHandler(...) (0000ms, 0264ms total)
T0EDC 000:285 JLINK_OpenEx(...)
Firmware: J-Link ARM-OB STM32 compiled Aug 22 2012 19:52:04
Hardware: V7.00
S/N: 20090928
Feature(s): RDI,FlashDL,FlashBP,JFlash,GDBFull  returns O.K. (0259ms, 0523ms total)
T0EDC 000:544 JLINK_SetErrorOutHandler(...) (0000ms, 0523ms total)
T0EDC 000:544 JLINK_ExecCommand("ProjectFile = "G:\Keil\STM32F1\mini_helicopter\STD\flight_f072\USER\JLinkSettings.ini"", ...)Device "CORTEX-M0" selected.  returns 0x00 (0001ms, 0524ms total)
T0EDC 000:545 JLINK_ExecCommand("Device = STM32F072C8Tx", ...)Device "CORTEX-M0" selected.  returns 0x00 (0000ms, 0524ms total)
T0EDC 000:545 JLINK_ExecCommand("DisableConnectionTimeout", ...)  returns 0x01 (0000ms, 0524ms total)
T0EDC 000:545 JLINK_GetHardwareVersion()  returns 0x11170 (0000ms, 0524ms total)
T0EDC 000:545 JLINK_GetDLLVersion()  returns 51205 (0000ms, 0524ms total)
T0EDC 000:545 JLINK_GetFirmwareString(...) (0000ms, 0524ms total)
T0EDC 000:545 JLINK_GetDLLVersion()  returns 51205 (0000ms, 0524ms total)
T0EDC 000:545 JLINK_GetCompileDateTime() (0000ms, 0524ms total)
T0EDC 000:545 JLINK_GetFirmwareString(...) (0000ms, 0524ms total)
T0EDC 000:545 JLINK_GetHardwareVersion()  returns 0x11170 (0000ms, 0524ms total)
T0EDC 000:545 JLINK_TIF_Select(JLINKARM_TIF_SWD)  returns 0x00 (0001ms, 0525ms total)
T0EDC 000:546 JLINK_SetSpeed(5000) (0000ms, 0525ms total)
T0EDC 000:546 JLINK_GetId() >0x108 TIF>Found SWD-DP with ID 0x0BB11477 >0x0D TIF> >0x28 TIF> >0x0D TIF> >0x28 TIF> >0x0D TIF> >0x28 TIF> >0x0D TIF> >0x28 TIF> >0x0D TIF> >0x21 TIF> >0x0D TIF> >0x28 TIF> >0x0D TIF> >0x28 TIF> >0x0D TIF> >0x21 TIF> >0x0D TIF> >0x21 TIF> >0x0D TIF> >0x21 TIF> >0x0D TIF> >0x28 TIF> >0x0D TIF> >0x28 TIF> >0x0D TIF> >0x28 TIF> >0x0D TIF> >0x21 TIF> >0x0D TIF> >0x21 TIF> >0x0D TIF> >0x28 TIF> >0x0D TIF> >0x21 TIF> >0x0D TIF> >0x21 TIF>Found Cortex-M0 r0p0, Little endian.
 -- CPU_ReadMem(4 bytes @ 0xE000EDF0) -- CPU_ReadMem(4 bytes @ 0xE0002000)FPUnit: 4 code (BP) slots and 0 literal slots -- CPU_ReadMem(4 bytes @ 0xE000EDFC) -- CPU_ReadMem(4 bytes @ 0xE0001000) -- CPU_WriteMem(4 bytes @ 0xE0001000)CoreSight components:ROMTbl 0 @ E00FF000 -- CPU_ReadMem(16 bytes @ 0xE00FF000) -- CPU_ReadMem(16 bytes @ 0xE000EFF0) -- CPU_ReadMem(16 bytes @ 0xE000EFE0)ROMTbl 0 [0]: FFF0F000, CID: B105E00D, PID: 00000000 SCS -- CPU_ReadMem(16 bytes @ 0xE0001FF0)
 -- CPU_ReadMem(16 bytes @ 0xE0001FE0)ROMTbl 0 [1]: FFF02000, CID: 00000000, PID: 000BB00A ??? -- CPU_ReadMem(16 bytes @ 0xE0002FF0) -- CPU_ReadMem(16 bytes @ 0xE0002FE0)ROMTbl 0 [2]: FFF03000, CID: B105E00D, PID: 000BB00B FPB >0x0D TIF> >0x21 TIF>  returns 0x0BB11477 (0021ms, 0546ms total)
T0EDC 000:567 JLINK_GetDLLVersion()  returns 51205 (0000ms, 0546ms total)
T0EDC 000:567 JLINK_CORE_GetFound()  returns 0x60000FF (0000ms, 0546ms total)
T0EDC 000:567 JLINK_GetDebugInfo(0x100) -- Value=0xE00FF000  returns 0x00 (0000ms, 0546ms total)
T0EDC 000:567 JLINK_GetDebugInfo(0x100) -- Value=0xE00FF000  returns 0x00 (0000ms, 0546ms total)
T0EDC 000:567 JLINK_GetDebugInfo(0x101) -- Value=0x00000000  returns 0x00 (0000ms, 0546ms total)
T0EDC 000:567 JLINK_ReadMem (0xE0041FF0, 0x0010 Bytes, ...) -- CPU is running -- CPU_ReadMem(16 bytes @ 0xE0041FF0) - Data: 00 00 00 00 00 00 00 00 00 00 00 00 00 00 00 00  returns 0x00 (0001ms, 0547ms total)
T0EDC 000:568 JLINK_GetDebugInfo(0x102) -- Value=0x00000000  returns 0x00 (0000ms, 0547ms total)
T0EDC 000:568 JLINK_GetDebugInfo(0x103) -- Value=0x00000000  returns 0x00 (0000ms, 0547ms total)
T0EDC 000:568 JLINK_ReadMem (0xE0040FF0, 0x0010 Bytes, ...) -- CPU is running -- CPU_ReadMem(16 bytes @ 0xE0040FF0) - Data: 00 00 00 00 00 00 00 00 00 00 00 00 00 00 00 00  returns 0x00 (0001ms, 0548ms total)
T0EDC 000:569 JLINK_GetDebugInfo(0x104) -- Value=0xE0000000  returns 0x00 (0000ms, 0548ms total)
T0EDC 000:569 JLINK_GetDebugInfo(0x105) -- Value=0xE0001000  returns 0x00 (0000ms, 0548ms total)
T0EDC 000:569 JLINK_GetDebugInfo(0x106) -- Value=0xE0002000  returns 0x00 (0000ms, 0548ms total)
T0EDC 000:569 JLINK_GetDebugInfo(0x107) -- Value=0xE000E000  returns 0x00 (0000ms, 0548ms total)
T0EDC 000:569 JLINK_GetDebugInfo(0x10C) -- Value=0xE000EDF0  returns 0x00 (0000ms, 0548ms total)
T0EDC 000:569 JLINK_ReadMemU32(0xE000ED00, 0x0001 Items, ...) -- CPU is running -- CPU_ReadMem(4 bytes @ 0xE000ED00) - Data: 00 C2 0C 41  returns 0x01 (0000ms, 0548ms total)
T0EDC 000:569 JLINK_SetResetType(JLINKARM_RESET_TYPE_NORMAL)  returns JLINKARM_RESET_TYPE_NORMAL (0000ms, 0548ms total)
T0EDC 000:569 JLINK_Reset() -- CPU is running -- CPU_WriteMem(4 bytes @ 0xE000EDF0) -- CPU is running -- CPU_WriteMem(4 bytes @ 0xE000EDFC) >0x35 TIF> -- CPU is running -- CPU_WriteMem(4 bytes @ 0xE000ED0C) -- CPU is running -- CPU_ReadMem(4 bytes @ 0xE000EDF0) -- CPU is running -- CPU_ReadMem(4 bytes @ 0xE000EDF0) -- CPU is running -- CPU_WriteMem(4 bytes @ 0xE000EDF0) -- CPU is running -- CPU_WriteMem(4 bytes @ 0xE000EDFC) -- CPU is running -- CPU_ReadMem(4 bytes @ 0xE000EDF0)
 -- CPU_WriteMem(4 bytes @ 0xE0002000) -- CPU_ReadMem(4 bytes @ 0xE000EDFC) -- CPU_ReadMem(4 bytes @ 0xE0001000) -- CPU_WriteMem(4 bytes @ 0xE0001000) (0021ms, 0569ms total)
T0EDC 000:590 JLINK_ReadReg(R15 (PC))  returns 0x0800019C (0000ms, 0569ms total)
T0EDC 000:590 JLINK_ReadReg(XPSR)  returns 0xC1000000 (0000ms, 0569ms total)
T0EDC 000:590 JLINK_Halt()  returns 0x00 (0000ms, 0569ms total)
T0EDC 000:590 JLINK_IsHalted()  returns TRUE (0000ms, 0569ms total)
T0EDC 000:590 JLINK_ReadMemU32(0xE000EDF0, 0x0001 Items, ...) -- CPU_ReadMem(4 bytes @ 0xE000EDF0) - Data: 03 00 03 00  returns 0x01 (0001ms, 0570ms total)
T0EDC 000:591 JLINK_WriteU32(0xE000EDF0, 0xA05F0003) -- CPU_WriteMem(4 bytes @ 0xE000EDF0)  returns 0x00 (0001ms, 0571ms total)
T0EDC 000:592 JLINK_WriteU32(0xE000EDFC, 0x01000000) -- CPU_WriteMem(4 bytes @ 0xE000EDFC)  returns 0x00 (0000ms, 0571ms total)
T0EDC 000:592 JLINK_GetHWStatus(...)  returns 0x00 (0000ms, 0571ms total)
T0EDC 000:593 JLINK_GetNumBPUnits(Type = 0xFFFFFF00)  returns 0x04 (0000ms, 0571ms total)
T0EDC 000:593 JLINK_GetNumBPUnits(Type = 0xF0)  returns 0x2000 (0000ms, 0571ms total)
T0EDC 000:593 JLINK_GetNumWPUnits()  returns 0x02 (0000ms, 0571ms total)
T0EDC 000:593 JLINK_GetSpeed()  returns 0xFA0 (0000ms, 0571ms total)
T0EDC 000:593 JLINK_ReadMemU32(0xE000E004, 0x0001 Items, ...) -- CPU_ReadMem(4 bytes @ 0xE000E004) - Data: 00 00 00 00  returns 0x01 (0000ms, 0571ms total)
T0EDC 000:593 JLINK_ReadReg(R15 (PC))  returns 0x0800019C (0000ms, 0571ms total)
T0EDC 000:593 JLINK_ReadReg(XPSR)  returns 0xC1000000 (0000ms, 0571ms total)
T0EDC 000:675 JLINK_SetResetType(JLINKARM_RESET_TYPE_NORMAL)  returns JLINKARM_RESET_TYPE_NORMAL (0000ms, 0571ms total)
T0EDC 000:675 JLINK_Reset() -- CPU_WriteMem(4 bytes @ 0xE000EDF0) -- CPU_WriteMem(4 bytes @ 0xE000EDFC) >0x35 TIF> -- CPU_WriteMem(4 bytes @ 0xE000ED0C) -- CPU_ReadMem(4 bytes @ 0xE000EDF0) -- CPU_ReadMem(4 bytes @ 0xE000EDF0) -- CPU_WriteMem(4 bytes @ 0xE000EDF0) -- CPU_WriteMem(4 bytes @ 0xE000EDFC) -- CPU is running -- CPU_ReadMem(4 bytes @ 0xE000EDF0) -- CPU_WriteMem(4 bytes @ 0xE0002000) -- CPU_ReadMem(4 bytes @ 0xE000EDFC) -- CPU_ReadMem(4 bytes @ 0xE0001000) -- CPU_WriteMem(4 bytes @ 0xE0001000)
 (0022ms, 0593ms total)
T0EDC 000:697 JLINK_ReadReg(R15 (PC))  returns 0x0800019C (0000ms, 0593ms total)
T0EDC 000:697 JLINK_ReadReg(XPSR)  returns 0xC1000000 (0000ms, 0593ms total)
T0EDC 000:873 JLINK_ReadMem (0x0800019C, 0x003C Bytes, ...) -- CPU_ReadMem(60 bytes @ 0x0800019C) - Data: AA AA AA AA AA AA AA AA AA AA AA AA AA AA AA AA ...  returns 0x01 (0002ms, 0595ms total)
T0EDC 000:875 JLINK_ReadMem (0x0800019C, 0x003C Bytes, ...) -- CPU_ReadMem(60 bytes @ 0x0800019C) - Data: AA AA AA AA AA AA AA AA AA AA AA AA AA AA AA AA ...  returns 0x01 (0002ms, 0597ms total)
T0EDC 000:877 JLINK_ReadMem (0x0800019C, 0x003C Bytes, ...) -- CPU_ReadMem(60 bytes @ 0x0800019C) - Data: AA AA AA AA AA AA AA AA AA AA AA AA AA AA AA AA ...  returns 0x01 (0001ms, 0598ms total)
T0EDC 001:073 JLINK_ReadMem (0x40013000, 0x0020 Bytes, ...) -- CPU_ReadMem(32 bytes @ 0x40013000) - Data: 00 00 00 00 00 00 00 00 00 00 00 00 00 00 00 00 ...  returns 0x00 (0001ms, 0599ms total)
T0EDC 001:074 JLINK_ReadMem (0x40013020, 0x0004 Bytes, ...) -- CPU_ReadMem(4 bytes @ 0x40013020) - Data: 00 00 00 00  returns 0x00 (0000ms, 0599ms total)
T0EDC 001:105 JLINK_ReadMem (0x40013800, 0x0028 Bytes, ...) -- CPU_ReadMem(40 bytes @ 0x40013800) - Data: 00 00 00 00 00 00 00 00 00 00 00 00 00 00 00 00 ...  returns 0x00 (0001ms, 0600ms total)
T0EDC 001:106 JLINK_ReadMem (0x40013828, 0x0004 Bytes, ...) -- CPU_ReadMem(4 bytes @ 0x40013828) - Data: 00 00 00 00  returns 0x00 (0000ms, 0600ms total)
T0EDC 002:275 JLINK_ReadMem (0x0800019C, 0x003C Bytes, ...) -- CPU_ReadMem(60 bytes @ 0x0800019C) - Data: AA AA AA AA AA AA AA AA AA AA AA AA AA AA AA AA ...  returns 0x01 (0001ms, 0601ms total)
T0EDC 002:276 JLINK_ReadMem (0x0800019C, 0x003C Bytes, ...) -- CPU_ReadMem(60 bytes @ 0x0800019C) - Data: AA AA AA AA AA AA AA AA AA AA AA AA AA AA AA AA ...  returns 0x01 (0002ms, 0603ms total)
T0EDC 002:278 JLINK_ReadMem (0x0800019C, 0x003C Bytes, ...) -- CPU_ReadMem(60 bytes @ 0x0800019C) - Data: AA AA AA AA AA AA AA AA AA AA AA AA AA AA AA AA ...  returns 0x01 (0002ms, 0605ms total)
T0EDC 002:280 JLINK_ReadMem (0x0800019E, 0x0002 Bytes, ...) -- CPU_ReadMem(2 bytes @ 0x0800019E) - Data: 80 F3  returns 0x00 (0001ms, 0606ms total)
T0EDC 002:281 JLINK_ReadMem (0x080001A0, 0x003C Bytes, ...) -- CPU_ReadMem(60 bytes @ 0x080001A0) - Data: AA AA AA AA AA AA AA AA AA AA AA AA AA AA AA AA ...  returns 0x01 (0001ms, 0607ms total)
T0EDC 002:282 JLINK_ReadMem (0x080001A0, 0x003C Bytes, ...) -- CPU_ReadMem(60 bytes @ 0x080001A0) - Data: AA AA AA AA AA AA AA AA AA AA AA AA AA AA AA AA ...  returns 0x01 (0001ms, 0608ms total)
T0EDC 002:283 JLINK_ReadMem (0x080001A0, 0x003C Bytes, ...) -- CPU_ReadMem(60 bytes @ 0x080001A0) - Data: 08 88 0F 48 01 68 09 0E 0E 4A 91 42 05 D1 0E 48 ...  returns 0x00 (0001ms, 0609ms total)
T0EDC 002:288 JLINK_ReadMem (0x0800019C, 0x003C Bytes, ...) -- CPU_ReadMem(60 bytes @ 0x0800019C) - Data: AA AA AA AA AA AA AA AA AA AA AA AA AA AA AA AA ...  returns 0x01 (0002ms, 0611ms total)
T0EDC 002:290 JLINK_ReadMem (0x0800019C, 0x003C Bytes, ...) -- CPU_ReadMem(60 bytes @ 0x0800019C) - Data: AA AA AA AA AA AA AA AA AA AA AA AA AA AA AA AA ...  returns 0x01 (0003ms, 0614ms total)
T0EDC 002:293 JLINK_ReadMem (0x0800019C, 0x003C Bytes, ...) -- CPU_ReadMem(60 bytes @ 0x0800019C) - Data: AA AA AA AA AA AA AA AA AA AA AA AA AA AA AA AA ...  returns 0x01 (0002ms, 0616ms total)
T0EDC 002:299 JLINK_ReadMem (0x0800019C, 0x003C Bytes, ...) -- CPU_ReadMem(60 bytes @ 0x0800019C) - Data: AA AA AA AA AA AA AA AA AA AA AA AA AA AA AA AA ...  returns 0x01 (0001ms, 0617ms total)
T0EDC 002:300 JLINK_ReadMem (0x0800019C, 0x003C Bytes, ...) -- CPU_ReadMem(60 bytes @ 0x0800019C) - Data: AA AA AA AA AA AA AA AA AA AA AA AA AA AA AA AA ...  returns 0x01 (0002ms, 0619ms total)
T0EDC 002:302 JLINK_ReadMem (0x0800019C, 0x003C Bytes, ...) -- CPU_ReadMem(60 bytes @ 0x0800019C) - Data: AA AA AA AA AA AA AA AA AA AA AA AA AA AA AA AA ...  returns 0x01 (0002ms, 0621ms total)
T0EDC 002:314 JLINK_ReadMem (0x0800019C, 0x003C Bytes, ...) -- CPU_ReadMem(60 bytes @ 0x0800019C) - Data: AA AA AA AA AA AA AA AA AA AA AA AA AA AA AA AA ...  returns 0x01 (0001ms, 0622ms total)
T0EDC 002:315 JLINK_ReadMem (0x0800019C, 0x003C Bytes, ...) -- CPU_ReadMem(60 bytes @ 0x0800019C) - Data: AA AA AA AA AA AA AA AA AA AA AA AA AA AA AA AA ...  returns 0x01 (0001ms, 0623ms total)
T0EDC 002:316 JLINK_ReadMem (0x0800019C, 0x003C Bytes, ...) -- CPU_ReadMem(60 bytes @ 0x0800019C) - Data: 0F 48 80 F3 08 88 0F 48 01 68 09 0E 0E 4A 91 42 ...  returns 0x00 (0002ms, 0625ms total)
T26D8 002:577 JLINK_SetBPEx(Addr = 0x08005A40, Type = 0xFFFFFFF2)  returns 0x00000001 (0000ms, 0625ms total)
T26D8 002:577 JLINK_SetBPEx(Addr = 0x080033AC, Type = 0xFFFFFFF2)  returns 0x00000002 (0000ms, 0625ms total)
T26D8 002:577 JLINK_SetBPEx(Addr = 0x08003EAA, Type = 0xFFFFFFF2)  returns 0x00000003 (0000ms, 0625ms total)
T26D8 002:577 JLINK_Go() -- CPU_WriteMem(4 bytes @ 0xE0002000) -- CPU_WriteMem(4 bytes @ 0xE0002000) -- CPU_WriteMem(4 bytes @ 0xE0002000) -- CPU_ReadMem(4 bytes @ 0xE0001000) -- CPU_WriteMem(4 bytes @ 0xE0001000) -- CPU_WriteMem(4 bytes @ 0xE0002008) -- CPU_WriteMem(4 bytes @ 0xE000200C) -- CPU_WriteMem(4 bytes @ 0xE0002010) -- CPU_WriteMem(4 bytes @ 0xE0002014) -- CPU_WriteMem(4 bytes @ 0xE0001004) (0006ms, 0631ms total)
T26D8 002:684 JLINK_IsHalted()  returns TRUE (0003ms, 0634ms total)
T26D8 002:687 JLINK_Halt()  returns 0x00 (0000ms, 0631ms total)
T26D8 002:687 JLINK_IsHalted()  returns TRUE (0000ms, 0631ms total)
T26D8 002:687 JLINK_IsHalted()  returns TRUE (0000ms, 0631ms total)
T26D8 002:687 JLINK_IsHalted()  returns TRUE (0000ms, 0631ms total)
T26D8 002:687 JLINK_ReadReg(R15 (PC))  returns 0x08005A40 (0000ms, 0631ms total)
T26D8 002:687 JLINK_ReadReg(XPSR)  returns 0x01000000 (0000ms, 0631ms total)
T26D8 002:687 JLINK_ClrBPEx(BPHandle = 0x00000001)  returns 0x00 (0000ms, 0631ms total)
T26D8 002:687 JLINK_ClrBPEx(BPHandle = 0x00000002)  returns 0x00 (0000ms, 0631ms total)
T26D8 002:687 JLINK_ClrBPEx(BPHandle = 0x00000003)  returns 0x00 (0000ms, 0631ms total)
T26D8 002:687 JLINK_ReadMemU32(0xE000ED30, 0x0001 Items, ...) -- CPU_ReadMem(4 bytes @ 0xE000ED30) - Data: 03 00 00 00  returns 0x01 (0001ms, 0632ms total)
T26D8 002:688 JLINK_ReadMemU32(0xE0001028, 0x0001 Items, ...) -- CPU_ReadMem(4 bytes @ 0xE0001028) - Data: 00 00 00 00  returns 0x01 (0000ms, 0632ms total)
T26D8 002:688 JLINK_ReadMemU32(0xE0001038, 0x0001 Items, ...) -- CPU_ReadMem(4 bytes @ 0xE0001038) - Data: 00 00 00 00  returns 0x01 (0001ms, 0633ms total)
T26D8 002:689 JLINK_ReadReg(R0)  returns 0x200009A0 (0000ms, 0633ms total)
T26D8 002:689 JLINK_ReadReg(R1)  returns 0x20000BA0 (0000ms, 0633ms total)
T26D8 002:689 JLINK_ReadReg(R2)  returns 0x20000BA0 (0000ms, 0633ms total)
T26D8 002:689 JLINK_ReadReg(R3)  returns 0x20000BA0 (0000ms, 0633ms total)
T26D8 002:689 JLINK_ReadReg(R4)  returns 0x08006130 (0000ms, 0633ms total)
T26D8 002:689 JLINK_ReadReg(R5)  returns 0x20000940 (0000ms, 0633ms total)
T26D8 002:689 JLINK_ReadReg(R6)  returns 0x00000000 (0000ms, 0633ms total)
T26D8 002:689 JLINK_ReadReg(R7)  returns 0x00000000 (0000ms, 0633ms total)
T26D8 002:689 JLINK_ReadReg(R8)  returns 0xFFFFFFFF (0000ms, 0633ms total)
T26D8 002:689 JLINK_ReadReg(R9)  returns 0xFFFFFFFF (0000ms, 0633ms total)
T26D8 002:689 JLINK_ReadReg(R10)  returns 0x08006130 (0000ms, 0633ms total)
T26D8 002:689 JLINK_ReadReg(R11)  returns 0x08006130 (0000ms, 0633ms total)
T26D8 002:689 JLINK_ReadReg(R12)  returns 0xFFFFFFFF (0000ms, 0633ms total)
T26D8 002:689 JLINK_ReadReg(R13 (SP))  returns 0x20000FA0 (0000ms, 0633ms total)
T26D8 002:689 JLINK_ReadReg(R14)  returns 0x08000153 (0000ms, 0633ms total)
T26D8 002:689 JLINK_ReadReg(R15 (PC))  returns 0x08005A40 (0000ms, 0633ms total)
T26D8 002:689 JLINK_ReadReg(XPSR)  returns 0x01000000 (0000ms, 0633ms total)
T26D8 002:689 JLINK_ReadReg(MSP)  returns 0x20000FA0 (0000ms, 0633ms total)
T26D8 002:689 JLINK_ReadReg(PSP)  returns 0xFFFFFFFC (0000ms, 0633ms total)
T26D8 002:689 JLINK_ReadReg(CFBP)  returns 0x00000000 (0001ms, 0634ms total)
T0EDC 002:692 JLINK_ReadMem (0x40013800, 0x0028 Bytes, ...) -- CPU_ReadMem(40 bytes @ 0x40013800) - Data: 00 00 00 00 00 00 00 00 00 00 00 00 00 00 00 00 ...  returns 0x00 (0001ms, 0635ms total)
T0EDC 002:694 JLINK_ReadMem (0x40013828, 0x0004 Bytes, ...) -- CPU_ReadMem(4 bytes @ 0x40013828) - Data: 00 00 00 00  returns 0x00 (0000ms, 0635ms total)
T0EDC 002:694 JLINK_ReadMem (0x40013000, 0x0020 Bytes, ...) -- CPU_ReadMem(32 bytes @ 0x40013000) - Data: 00 00 00 00 00 00 00 00 00 00 00 00 00 00 00 00 ...  returns 0x00 (0001ms, 0636ms total)
T0EDC 002:695 JLINK_ReadMem (0x40013020, 0x0004 Bytes, ...) -- CPU_ReadMem(4 bytes @ 0x40013020) - Data: 00 00 00 00  returns 0x00 (0001ms, 0637ms total)
T0EDC 002:698 JLINK_ReadMem (0x08005940, 0x003C Bytes, ...) -- CPU_ReadMem(64 bytes @ 0x08005940) -- CPU_ReadMem(60 bytes @ 0x08005940) - Data: AA AA AA AA AA AA AA AA AA AA AA AA AA AA AA AA ...  returns 0x01 (0004ms, 0641ms total)
T0EDC 002:702 JLINK_ReadMem (0x08005942, 0x0002 Bytes, ...) -- CPU_ReadMem(64 bytes @ 0x08005940) -- CPU_ReadMem(2 bytes @ 0x08005942) - Data: AA AA  returns 0x01 (0003ms, 0644ms total)
T0EDC 002:705 JLINK_ReadMem (0x08005944, 0x003C Bytes, ...) -- CPU_ReadMem(64 bytes @ 0x08005940) -- Updating DA cache (64 bytes @ 0x08005940) -- Read from DA cache (60 bytes @ 0x08005944) - Data: 39 46 00 F0 EF F9 2C 49 00 F0 7C F9 39 46 00 F0 ...  returns 0x00 (0001ms, 0645ms total)
T0EDC 002:706 JLINK_ReadMem (0x08005980, 0x003C Bytes, ...) -- CPU_ReadMem(64 bytes @ 0x08005980) -- Updating DA cache (64 bytes @ 0x08005980) -- Read from DA cache (60 bytes @ 0x08005980) - Data: D3 F9 21 49 00 F0 60 F9 29 46 00 F0 CD F9 39 46 ...  returns 0x00 (0001ms, 0646ms total)
T0EDC 002:707 JLINK_ReadMem (0x080059BC, 0x003C Bytes, ...) -- CPU_ReadMem(64 bytes @ 0x080059C0) -- Updating DA cache (64 bytes @ 0x080059C0) -- Read from DA cache (60 bytes @ 0x080059BC) - Data: FB F7 E7 FB FF F7 97 FB 03 B0 F0 BD 28 46 FF F7 ...  returns 0x00 (0002ms, 0648ms total)
T0EDC 002:709 JLINK_ReadMem (0x08005A0C, 0x003C Bytes, ...) -- CPU_ReadMem(128 bytes @ 0x08005A00) -- Updating DA cache (128 bytes @ 0x08005A00) -- Read from DA cache (60 bytes @ 0x08005A0C) - Data: 10 B5 00 21 04 46 C9 43 FB F7 94 FB 08 4A 61 10 ...  returns 0x00 (0002ms, 0650ms total)
T26D8 004:354 JLINK_SetBPEx(Addr = 0x08005A44, Type = 0xFFFFFFF2)  returns 0x00000004 (0001ms, 0651ms total)
T26D8 004:355 JLINK_SetBPEx(Addr = 0x080033AC, Type = 0xFFFFFFF2)  returns 0x00000005 (0000ms, 0651ms total)
T26D8 004:355 JLINK_SetBPEx(Addr = 0x08003EAA, Type = 0xFFFFFFF2)  returns 0x00000006 (0000ms, 0651ms total)
T26D8 004:355 JLINK_Go() -- CPU_WriteMem(4 bytes @ 0xE0002000) -- CPU_WriteMem(4 bytes @ 0xE0002000) -- CPU_WriteMem(4 bytes @ 0xE0002000) -- CPU_ReadMem(4 bytes @ 0xE0001000) -- CPU_WriteMem(4 bytes @ 0xE0001000) -- CPU_WriteMem(4 bytes @ 0xE0002008) (0004ms, 0655ms total)
T26D8 004:460 JLINK_IsHalted()  returns TRUE (0006ms, 0661ms total)
T26D8 004:466 JLINK_Halt()  returns 0x00 (0000ms, 0655ms total)
T26D8 004:466 JLINK_IsHalted()  returns TRUE (0000ms, 0655ms total)
T26D8 004:466 JLINK_IsHalted()  returns TRUE (0000ms, 0655ms total)
T26D8 004:466 JLINK_IsHalted()  returns TRUE (0000ms, 0655ms total)
T26D8 004:466 JLINK_ReadReg(R15 (PC))  returns 0x08003EAA (0000ms, 0655ms total)
T26D8 004:466 JLINK_ReadReg(XPSR)  returns 0x01000000 (0000ms, 0655ms total)
T26D8 004:466 JLINK_ClrBPEx(BPHandle = 0x00000004)  returns 0x00 (0000ms, 0655ms total)
T26D8 004:466 JLINK_ClrBPEx(BPHandle = 0x00000005)  returns 0x00 (0000ms, 0655ms total)
T26D8 004:466 JLINK_ClrBPEx(BPHandle = 0x00000006)  returns 0x00 (0000ms, 0655ms total)
T26D8 004:466 JLINK_ReadMemU32(0xE000ED30, 0x0001 Items, ...) -- CPU_ReadMem(4 bytes @ 0xE000ED30) - Data: 03 00 00 00  returns 0x01 (0001ms, 0656ms total)
T26D8 004:467 JLINK_ReadMemU32(0xE0001028, 0x0001 Items, ...) -- CPU_ReadMem(4 bytes @ 0xE0001028) - Data: 00 00 00 00  returns 0x01 (0001ms, 0657ms total)
T26D8 004:468 JLINK_ReadMemU32(0xE0001038, 0x0001 Items, ...) -- CPU_ReadMem(4 bytes @ 0xE0001038) - Data: 00 00 00 00  returns 0x01 (0001ms, 0658ms total)
T26D8 004:469 JLINK_ReadReg(R0)  returns 0x48000000 (0000ms, 0658ms total)
T26D8 004:469 JLINK_ReadReg(R1)  returns 0x00000010 (0000ms, 0658ms total)
T26D8 004:469 JLINK_ReadReg(R2)  returns 0x00000040 (0000ms, 0658ms total)
T26D8 004:469 JLINK_ReadReg(R3)  returns 0x0000EFFF (0000ms, 0658ms total)
T26D8 004:469 JLINK_ReadReg(R4)  returns 0x20000E98 (0000ms, 0658ms total)
T26D8 004:469 JLINK_ReadReg(R5)  returns 0x00000000 (0000ms, 0658ms total)
T26D8 004:469 JLINK_ReadReg(R6)  returns 0x00000003 (0000ms, 0658ms total)
T26D8 004:469 JLINK_ReadReg(R7)  returns 0x48000000 (0000ms, 0658ms total)
T26D8 004:469 JLINK_ReadReg(R8)  returns 0xFFFFFFFF (0000ms, 0658ms total)
T26D8 004:469 JLINK_ReadReg(R9)  returns 0xFFFFFFFF (0000ms, 0658ms total)
T26D8 004:469 JLINK_ReadReg(R10)  returns 0x08006130 (0000ms, 0658ms total)
T26D8 004:469 JLINK_ReadReg(R11)  returns 0x08006130 (0000ms, 0658ms total)
T26D8 004:469 JLINK_ReadReg(R12)  returns 0x00000000 (0000ms, 0658ms total)
T26D8 004:469 JLINK_ReadReg(R13 (SP))  returns 0x20000F68 (0000ms, 0658ms total)
T26D8 004:469 JLINK_ReadReg(R14)  returns 0x08003F9B (0000ms, 0658ms total)
T26D8 004:469 JLINK_ReadReg(R15 (PC))  returns 0x08003EAA (0000ms, 0658ms total)
T26D8 004:469 JLINK_ReadReg(XPSR)  returns 0x01000000 (0000ms, 0658ms total)
T26D8 004:469 JLINK_ReadReg(MSP)  returns 0x20000F68 (0000ms, 0658ms total)
T26D8 004:469 JLINK_ReadReg(PSP)  returns 0xFFFFFFFC (0000ms, 0658ms total)
T26D8 004:469 JLINK_ReadReg(CFBP)  returns 0x00000000 (0000ms, 0658ms total)
T0EDC 004:469 JLINK_ReadMem (0x20000F74, 0x0004 Bytes, ...) -- CPU_ReadMem(4 bytes @ 0x20000F74) - Data: 9B 3F 00 08  returns 0x00 (0001ms, 0659ms total)
T0EDC 004:470 JLINK_ReadMem (0x20000F68, 0x0004 Bytes, ...) -- CPU_ReadMem(4 bytes @ 0x20000F68) - Data: 01 00 00 00  returns 0x00 (0001ms, 0660ms total)
T0EDC 004:471 JLINK_ReadMem (0x20000F6C, 0x0004 Bytes, ...) -- CPU_ReadMem(4 bytes @ 0x20000F6C) - Data: 00 00 00 00  returns 0x00 (0001ms, 0661ms total)
T0EDC 004:472 JLINK_ReadMem (0x20000F70, 0x0004 Bytes, ...) -- CPU_ReadMem(4 bytes @ 0x20000F70) - Data: 03 00 00 00  returns 0x00 (0001ms, 0662ms total)
T0EDC 004:473 JLINK_ReadMem (0x20000F94, 0x0004 Bytes, ...) -- CPU_ReadMem(4 bytes @ 0x20000F94) - Data: 23 47 00 08  returns 0x00 (0000ms, 0662ms total)
T0EDC 004:474 JLINK_ReadMem (0x20000F84, 0x0004 Bytes, ...) -- CPU_ReadMem(4 bytes @ 0x20000F84) - Data: 30 61 00 08  returns 0x00 (0001ms, 0663ms total)
T0EDC 004:475 JLINK_ReadMem (0x20000F88, 0x0004 Bytes, ...) -- CPU_ReadMem(4 bytes @ 0x20000F88) - Data: 40 09 00 20  returns 0x00 (0000ms, 0663ms total)
T0EDC 004:475 JLINK_ReadMem (0x20000F8C, 0x0004 Bytes, ...) -- CPU_ReadMem(4 bytes @ 0x20000F8C) - Data: 00 00 00 00  returns 0x00 (0001ms, 0664ms total)
T0EDC 004:476 JLINK_ReadMem (0x20000F90, 0x0004 Bytes, ...) -- CPU_ReadMem(4 bytes @ 0x20000F90) - Data: 00 00 00 00  returns 0x00 (0001ms, 0665ms total)
T0EDC 004:477 JLINK_ReadMem (0x20000F9C, 0x0004 Bytes, ...) -- CPU_ReadMem(4 bytes @ 0x20000F9C) - Data: 45 5A 00 08  returns 0x00 (0001ms, 0666ms total)
T0EDC 004:478 JLINK_ReadMem (0x20000F98, 0x0004 Bytes, ...) -- CPU_ReadMem(4 bytes @ 0x20000F98) - Data: 30 61 00 08  returns 0x00 (0000ms, 0666ms total)
T0EDC 004:480 JLINK_ReadMem (0x40013800, 0x0028 Bytes, ...) -- CPU_ReadMem(40 bytes @ 0x40013800) - Data: AA AA AA AA AA AA AA AA AA AA AA AA AA AA AA AA ...  returns 0x01 (0002ms, 0668ms total)
T0EDC 004:482 JLINK_ReadMem (0x40013800, 0x0004 Bytes, ...) -- CPU_ReadMem(4 bytes @ 0x40013800) - Data: AA AA AA AA  returns 0x01 (0001ms, 0669ms total)
T0EDC 004:483 JLINK_ReadMem (0x40013804, 0x0004 Bytes, ...) -- CPU_ReadMem(4 bytes @ 0x40013804) - Data: 00 00 00 00  returns 0x00 (0001ms, 0670ms total)
T0EDC 004:484 JLINK_ReadMem (0x40013808, 0x0004 Bytes, ...) -- CPU_ReadMem(4 bytes @ 0x40013808) - Data: 00 00 00 00  returns 0x00 (0001ms, 0671ms total)
T0EDC 004:485 JLINK_ReadMem (0x4001380C, 0x0004 Bytes, ...) -- CPU_ReadMem(4 bytes @ 0x4001380C) - Data: A1 01 00 00  returns 0x00 (0000ms, 0671ms total)
T0EDC 004:485 JLINK_ReadMem (0x40013810, 0x0004 Bytes, ...) -- CPU_ReadMem(4 bytes @ 0x40013810) - Data: 00 00 00 00  returns 0x00 (0001ms, 0672ms total)
T0EDC 004:486 JLINK_ReadMem (0x40013814, 0x0004 Bytes, ...) -- CPU_ReadMem(4 bytes @ 0x40013814) - Data: 00 00 00 00  returns 0x00 (0001ms, 0673ms total)
T0EDC 004:487 JLINK_ReadMem (0x40013818, 0x0004 Bytes, ...) -- CPU_ReadMem(4 bytes @ 0x40013818) - Data: 00 00 00 00  returns 0x00 (0000ms, 0673ms total)
T0EDC 004:487 JLINK_ReadMem (0x4001381C, 0x0004 Bytes, ...) -- CPU_ReadMem(4 bytes @ 0x4001381C) - Data: D0 00 60 00  returns 0x00 (0001ms, 0674ms total)
T0EDC 004:488 JLINK_ReadMem (0x40013820, 0x0004 Bytes, ...) -- CPU_ReadMem(4 bytes @ 0x40013820) - Data: 00 00 00 00  returns 0x00 (0000ms, 0674ms total)
T0EDC 004:488 JLINK_ReadMem (0x40013824, 0x0004 Bytes, ...) -- CPU_ReadMem(4 bytes @ 0x40013824) - Data: 00 00 00 00  returns 0x00 (0001ms, 0675ms total)
T0EDC 004:489 JLINK_ReadMem (0x40013828, 0x0004 Bytes, ...) -- CPU_ReadMem(4 bytes @ 0x40013828) - Data: 00 00 00 00  returns 0x00 (0001ms, 0676ms total)
T0EDC 004:500 JLINK_ReadMem (0x40013000, 0x0020 Bytes, ...) -- CPU_ReadMem(32 bytes @ 0x40013000) - Data: 54 03 00 00 00 17 00 00 02 00 00 00 00 00 00 00 ...  returns 0x00 (0001ms, 0677ms total)
T0EDC 004:501 JLINK_ReadMem (0x40013020, 0x0004 Bytes, ...) -- CPU_ReadMem(4 bytes @ 0x40013020) - Data: 02 00 00 00  returns 0x00 (0000ms, 0677ms total)
T0EDC 004:505 JLINK_ReadMem (0x08003EA2, 0x0002 Bytes, ...) -- CPU_ReadMem(64 bytes @ 0x08003E80) -- CPU_ReadMem(2 bytes @ 0x08003EA2) - Data: AA AA  returns 0x01 (0004ms, 0681ms total)
T0EDC 004:509 JLINK_ReadMem (0x08003EA4, 0x003C Bytes, ...) -- CPU_ReadMem(128 bytes @ 0x08003E80) -- Updating DA cache (128 bytes @ 0x08003E80) -- Read from DA cache (60 bytes @ 0x08003EA4) - Data: 28 46 FE F7 B4 FD 00 F0 07 F9 00 28 F3 D0 21 46 ...  returns 0x00 (0002ms, 0683ms total)
T26D8 006:050 JLINK_Step() -- Read from DA cache (2 bytes @ 0x08003EAA) -- CPU_ReadMem(4 bytes @ 0xE000ED18) -- CPU_WriteMem(4 bytes @ 0xE000ED18) -- CPU_ReadMem(4 bytes @ 0xE000ED18) -- CPU_WriteMem(4 bytes @ 0xE000ED18) -- CPU_ReadMem(4 bytes @ 0xE0001004) -- Not simulated -- CPU_WriteMem(4 bytes @ 0xE0002008) -- CPU_WriteMem(4 bytes @ 0xE000200C) -- CPU_WriteMem(4 bytes @ 0xE0002010)  returns 0x00 (0010ms, 0693ms total)
T26D8 006:060 JLINK_ReadReg(R15 (PC))  returns 0x080040BC (0000ms, 0693ms total)
T26D8 006:060 JLINK_ReadReg(XPSR)  returns 0x01000000 (0000ms, 0693ms total)
T26D8 006:060 JLINK_SetBPEx(Addr = 0x08003EAE, Type = 0xFFFFFFF2)  returns 0x00000007 (0000ms, 0693ms total)
T26D8 006:060 JLINK_SetBPEx(Addr = 0x080033AC, Type = 0xFFFFFFF2)  returns 0x00000008 (0000ms, 0693ms total)
T26D8 006:060 JLINK_SetBPEx(Addr = 0x08003EAA, Type = 0xFFFFFFF2)  returns 0x00000009 (0001ms, 0694ms total)
T26D8 006:061 JLINK_Go() -- CPU_WriteMem(4 bytes @ 0xE0002000) -- CPU_WriteMem(4 bytes @ 0xE0002000) -- CPU_WriteMem(4 bytes @ 0xE0002000) -- CPU_ReadMem(4 bytes @ 0xE0001000) -- CPU_WriteMem(4 bytes @ 0xE0001000) -- CPU_WriteMem(4 bytes @ 0xE0002008) -- CPU_WriteMem(4 bytes @ 0xE000200C) -- CPU_WriteMem(4 bytes @ 0xE0002010) (0004ms, 0698ms total)
T26D8 006:167 JLINK_IsHalted()  returns TRUE (0005ms, 0703ms total)
T26D8 006:172 JLINK_Halt()  returns 0x00 (0000ms, 0698ms total)
T26D8 006:172 JLINK_IsHalted()  returns TRUE (0000ms, 0698ms total)
T26D8 006:172 JLINK_IsHalted()  returns TRUE (0000ms, 0698ms total)
T26D8 006:172 JLINK_IsHalted()  returns TRUE (0000ms, 0698ms total)
T26D8 006:172 JLINK_ReadReg(R15 (PC))  returns 0x08003EAE (0000ms, 0698ms total)
T26D8 006:172 JLINK_ReadReg(XPSR)  returns 0x41000000 (0000ms, 0698ms total)
T26D8 006:172 JLINK_ClrBPEx(BPHandle = 0x00000007)  returns 0x00 (0000ms, 0698ms total)
T26D8 006:172 JLINK_ClrBPEx(BPHandle = 0x00000008)  returns 0x00 (0000ms, 0698ms total)
T26D8 006:172 JLINK_ClrBPEx(BPHandle = 0x00000009)  returns 0x00 (0000ms, 0698ms total)
T26D8 006:172 JLINK_ReadMemU32(0xE000ED30, 0x0001 Items, ...) -- CPU_ReadMem(4 bytes @ 0xE000ED30) - Data: 03 00 00 00  returns 0x01 (0001ms, 0699ms total)
T26D8 006:173 JLINK_ReadMemU32(0xE0001028, 0x0001 Items, ...) -- CPU_ReadMem(4 bytes @ 0xE0001028) - Data: 00 00 00 00  returns 0x01 (0001ms, 0700ms total)
T26D8 006:174 JLINK_ReadMemU32(0xE0001038, 0x0001 Items, ...) -- CPU_ReadMem(4 bytes @ 0xE0001038) - Data: 00 00 00 00  returns 0x01 (0000ms, 0700ms total)
T26D8 006:174 JLINK_ReadReg(R0)  returns 0x00000000 (0000ms, 0700ms total)
T26D8 006:174 JLINK_ReadReg(R1)  returns 0x00000000 (0000ms, 0700ms total)
T26D8 006:174 JLINK_ReadReg(R2)  returns 0xA5A5A5A5 (0000ms, 0700ms total)
T26D8 006:174 JLINK_ReadReg(R3)  returns 0x000000A5 (0000ms, 0700ms total)
T26D8 006:174 JLINK_ReadReg(R4)  returns 0x00004000 (0000ms, 0700ms total)
T26D8 006:174 JLINK_ReadReg(R5)  returns 0x00000000 (0001ms, 0701ms total)
T26D8 006:175 JLINK_ReadReg(R6)  returns 0x00000003 (0000ms, 0701ms total)
T26D8 006:175 JLINK_ReadReg(R7)  returns 0x48000000 (0000ms, 0701ms total)
T26D8 006:175 JLINK_ReadReg(R8)  returns 0xFFFFFFFF (0000ms, 0701ms total)
T26D8 006:175 JLINK_ReadReg(R9)  returns 0xFFFFFFFF (0000ms, 0701ms total)
T26D8 006:175 JLINK_ReadReg(R10)  returns 0x08006130 (0000ms, 0701ms total)
T26D8 006:175 JLINK_ReadReg(R11)  returns 0x08006130 (0000ms, 0701ms total)
T26D8 006:175 JLINK_ReadReg(R12)  returns 0x00000000 (0000ms, 0701ms total)
T26D8 006:175 JLINK_ReadReg(R13 (SP))  returns 0x20000F68 (0000ms, 0701ms total)
T26D8 006:175 JLINK_ReadReg(R14)  returns 0x08003FD3 (0000ms, 0701ms total)
T26D8 006:175 JLINK_ReadReg(R15 (PC))  returns 0x08003EAE (0000ms, 0701ms total)
T26D8 006:175 JLINK_ReadReg(XPSR)  returns 0x41000000 (0000ms, 0701ms total)
T26D8 006:175 JLINK_ReadReg(MSP)  returns 0x20000F68 (0000ms, 0701ms total)
T26D8 006:175 JLINK_ReadReg(PSP)  returns 0xFFFFFFFC (0000ms, 0701ms total)
T26D8 006:175 JLINK_ReadReg(CFBP)  returns 0x00000000 (0000ms, 0701ms total)
T0EDC 006:175 JLINK_ReadMem (0x20000F74, 0x0004 Bytes, ...) -- CPU_ReadMem(4 bytes @ 0x20000F74) - Data: 9B 3F 00 08  returns 0x00 (0001ms, 0702ms total)
T0EDC 006:176 JLINK_ReadMem (0x20000F68, 0x0004 Bytes, ...) -- CPU_ReadMem(4 bytes @ 0x20000F68) - Data: 01 00 00 00  returns 0x00 (0001ms, 0703ms total)
T0EDC 006:177 JLINK_ReadMem (0x20000F6C, 0x0004 Bytes, ...) -- CPU_ReadMem(4 bytes @ 0x20000F6C) - Data: 00 00 00 00  returns 0x00 (0001ms, 0704ms total)
T0EDC 006:178 JLINK_ReadMem (0x20000F70, 0x0004 Bytes, ...) -- CPU_ReadMem(4 bytes @ 0x20000F70) - Data: 03 00 00 00  returns 0x00 (0000ms, 0704ms total)
T0EDC 006:178 JLINK_ReadMem (0x20000F94, 0x0004 Bytes, ...) -- CPU_ReadMem(4 bytes @ 0x20000F94) - Data: 23 47 00 08  returns 0x00 (0001ms, 0705ms total)
T0EDC 006:179 JLINK_ReadMem (0x20000F84, 0x0004 Bytes, ...) -- CPU_ReadMem(4 bytes @ 0x20000F84) - Data: 30 61 00 08  returns 0x00 (0001ms, 0706ms total)
T0EDC 006:180 JLINK_ReadMem (0x20000F88, 0x0004 Bytes, ...) -- CPU_ReadMem(4 bytes @ 0x20000F88) - Data: 40 09 00 20  returns 0x00 (0000ms, 0706ms total)
T0EDC 006:180 JLINK_ReadMem (0x20000F8C, 0x0004 Bytes, ...) -- CPU_ReadMem(4 bytes @ 0x20000F8C) - Data: 00 00 00 00  returns 0x00 (0001ms, 0707ms total)
T0EDC 006:181 JLINK_ReadMem (0x20000F90, 0x0004 Bytes, ...) -- CPU_ReadMem(4 bytes @ 0x20000F90) - Data: 00 00 00 00  returns 0x00 (0001ms, 0708ms total)
T0EDC 006:182 JLINK_ReadMem (0x20000F9C, 0x0004 Bytes, ...) -- CPU_ReadMem(4 bytes @ 0x20000F9C) - Data: 45 5A 00 08  returns 0x00 (0000ms, 0708ms total)
T0EDC 006:182 JLINK_ReadMem (0x20000F98, 0x0004 Bytes, ...) -- CPU_ReadMem(4 bytes @ 0x20000F98) - Data: 30 61 00 08  returns 0x00 (0001ms, 0709ms total)
T0EDC 006:184 JLINK_ReadMem (0x40013800, 0x0028 Bytes, ...) -- CPU_ReadMem(40 bytes @ 0x40013800) - Data: AA AA AA AA AA AA AA AA AA AA AA AA AA AA AA AA ...  returns 0x01 (0001ms, 0710ms total)
T0EDC 006:185 JLINK_ReadMem (0x40013800, 0x0004 Bytes, ...) -- CPU_ReadMem(4 bytes @ 0x40013800) - Data: AA AA AA AA  returns 0x01 (0002ms, 0712ms total)
T0EDC 006:187 JLINK_ReadMem (0x40013804, 0x0004 Bytes, ...) -- CPU_ReadMem(4 bytes @ 0x40013804) - Data: 00 00 00 00  returns 0x00 (0001ms, 0713ms total)
T0EDC 006:188 JLINK_ReadMem (0x40013808, 0x0004 Bytes, ...) -- CPU_ReadMem(4 bytes @ 0x40013808) - Data: 00 00 00 00  returns 0x00 (0001ms, 0714ms total)
T0EDC 006:189 JLINK_ReadMem (0x4001380C, 0x0004 Bytes, ...) -- CPU_ReadMem(4 bytes @ 0x4001380C) - Data: A1 01 00 00  returns 0x00 (0000ms, 0714ms total)
T0EDC 006:189 JLINK_ReadMem (0x40013810, 0x0004 Bytes, ...) -- CPU_ReadMem(4 bytes @ 0x40013810) - Data: 00 00 00 00  returns 0x00 (0001ms, 0715ms total)
T0EDC 006:190 JLINK_ReadMem (0x40013814, 0x0004 Bytes, ...) -- CPU_ReadMem(4 bytes @ 0x40013814) - Data: 00 00 00 00  returns 0x00 (0001ms, 0716ms total)
T0EDC 006:191 JLINK_ReadMem (0x40013818, 0x0004 Bytes, ...) -- CPU_ReadMem(4 bytes @ 0x40013818) - Data: 00 00 00 00  returns 0x00 (0000ms, 0716ms total)
T0EDC 006:191 JLINK_ReadMem (0x4001381C, 0x0004 Bytes, ...) -- CPU_ReadMem(4 bytes @ 0x4001381C) - Data: D0 00 60 00  returns 0x00 (0001ms, 0717ms total)
T0EDC 006:192 JLINK_ReadMem (0x40013820, 0x0004 Bytes, ...) -- CPU_ReadMem(4 bytes @ 0x40013820) - Data: 00 00 00 00  returns 0x00 (0001ms, 0718ms total)
T0EDC 006:193 JLINK_ReadMem (0x40013824, 0x0004 Bytes, ...) -- CPU_ReadMem(4 bytes @ 0x40013824) - Data: 00 00 00 00  returns 0x00 (0000ms, 0718ms total)
T0EDC 006:193 JLINK_ReadMem (0x40013828, 0x0004 Bytes, ...) -- CPU_ReadMem(4 bytes @ 0x40013828) - Data: 00 00 00 00  returns 0x00 (0001ms, 0719ms total)
T0EDC 006:194 JLINK_ReadMem (0x40013000, 0x0020 Bytes, ...) -- CPU_ReadMem(32 bytes @ 0x40013000) - Data: 54 03 00 00 00 17 00 00 02 00 00 00 00 00 00 00 ...  returns 0x00 (0001ms, 0720ms total)
T0EDC 006:195 JLINK_ReadMem (0x40013020, 0x0004 Bytes, ...) -- CPU_ReadMem(4 bytes @ 0x40013020) - Data: 02 00 00 00  returns 0x00 (0001ms, 0721ms total)
T0EDC 006:200 JLINK_ReadMem (0x08003EAE, 0x0002 Bytes, ...) -- CPU_ReadMem(64 bytes @ 0x08003E80) -- CPU_ReadMem(2 bytes @ 0x08003EAE) - Data: AA AA  returns 0x01 (0004ms, 0725ms total)
T0EDC 006:204 JLINK_ReadMem (0x08003EAE, 0x0002 Bytes, ...) -- CPU_ReadMem(64 bytes @ 0x08003E80) -- Updating DA cache (64 bytes @ 0x08003E80) -- Read from DA cache (2 bytes @ 0x08003EAE) - Data: 00 28  returns 0x00 (0001ms, 0726ms total)
T0EDC 006:205 JLINK_ReadMem (0x08003EB0, 0x003C Bytes, ...) -- CPU_ReadMem(64 bytes @ 0x08003EC0) -- Updating DA cache (64 bytes @ 0x08003EC0) -- Read from DA cache (60 bytes @ 0x08003EB0) - Data: F3 D0 21 46 28 46 FE F7 AE FD 70 BD 00 04 00 48 ...  returns 0x00 (0001ms, 0727ms total)
T26D8 006:625 JLINK_Step() -- Read from DA cache (2 bytes @ 0x08003EAE) -- CPU_ReadMem(4 bytes @ 0xE0001004) -- Simulated  returns 0x00 (0001ms, 0728ms total)
T26D8 006:626 JLINK_ReadReg(R15 (PC))  returns 0x08003EB0 (0000ms, 0728ms total)
T26D8 006:626 JLINK_ReadReg(XPSR)  returns 0x61000000 (0000ms, 0728ms total)
T26D8 006:626 JLINK_Step() -- Read from DA cache (2 bytes @ 0x08003EB0) -- Simulated  returns 0x00 (0000ms, 0728ms total)
T26D8 006:626 JLINK_ReadReg(R15 (PC))  returns 0x08003E9A (0000ms, 0728ms total)
T26D8 006:626 JLINK_ReadReg(XPSR)  returns 0x61000000 (0000ms, 0728ms total)
T26D8 006:626 JLINK_ReadReg(R0)  returns 0x00000000 (0000ms, 0728ms total)
T26D8 006:626 JLINK_ReadReg(R1)  returns 0x00000000 (0000ms, 0728ms total)
T26D8 006:626 JLINK_ReadReg(R2)  returns 0xA5A5A5A5 (0000ms, 0728ms total)
T26D8 006:626 JLINK_ReadReg(R3)  returns 0x000000A5 (0000ms, 0728ms total)
T26D8 006:626 JLINK_ReadReg(R4)  returns 0x00004000 (0000ms, 0728ms total)
T26D8 006:626 JLINK_ReadReg(R5)  returns 0x00000000 (0000ms, 0728ms total)
T26D8 006:626 JLINK_ReadReg(R6)  returns 0x00000003 (0000ms, 0728ms total)
T26D8 006:626 JLINK_ReadReg(R7)  returns 0x48000000 (0000ms, 0728ms total)
T26D8 006:626 JLINK_ReadReg(R8)  returns 0xFFFFFFFF (0000ms, 0728ms total)
T26D8 006:626 JLINK_ReadReg(R9)  returns 0xFFFFFFFF (0000ms, 0728ms total)
T26D8 006:626 JLINK_ReadReg(R10)  returns 0x08006130 (0001ms, 0729ms total)
T26D8 006:627 JLINK_ReadReg(R11)  returns 0x08006130 (0000ms, 0729ms total)
T26D8 006:627 JLINK_ReadReg(R12)  returns 0x00000000 (0000ms, 0729ms total)
T26D8 006:627 JLINK_ReadReg(R13 (SP))  returns 0x20000F68 (0000ms, 0729ms total)
T26D8 006:627 JLINK_ReadReg(R14)  returns 0x08003FD3 (0000ms, 0729ms total)
T26D8 006:627 JLINK_ReadReg(R15 (PC))  returns 0x08003E9A (0000ms, 0729ms total)
T26D8 006:627 JLINK_ReadReg(XPSR)  returns 0x61000000 (0000ms, 0729ms total)
T26D8 006:627 JLINK_ReadReg(MSP)  returns 0x20000F68 (0000ms, 0729ms total)
T26D8 006:627 JLINK_ReadReg(PSP)  returns 0xFFFFFFFC (0000ms, 0729ms total)
T26D8 006:627 JLINK_ReadReg(CFBP)  returns 0x00000000 (0000ms, 0729ms total)
T0EDC 006:627 JLINK_ReadMem (0x20000F74, 0x0004 Bytes, ...) -- CPU_ReadMem(4 bytes @ 0x20000F74) - Data: 9B 3F 00 08  returns 0x00 (0001ms, 0730ms total)
T0EDC 006:628 JLINK_ReadMem (0x20000F68, 0x0004 Bytes, ...) -- CPU_ReadMem(4 bytes @ 0x20000F68) - Data: 01 00 00 00  returns 0x00 (0001ms, 0731ms total)
T0EDC 006:629 JLINK_ReadMem (0x20000F6C, 0x0004 Bytes, ...) -- CPU_ReadMem(4 bytes @ 0x20000F6C) - Data: 00 00 00 00  returns 0x00 (0001ms, 0732ms total)
T0EDC 006:630 JLINK_ReadMem (0x20000F70, 0x0004 Bytes, ...) -- CPU_ReadMem(4 bytes @ 0x20000F70) - Data: 03 00 00 00  returns 0x00 (0000ms, 0732ms total)
T0EDC 006:630 JLINK_ReadMem (0x20000F94, 0x0004 Bytes, ...) -- CPU_ReadMem(4 bytes @ 0x20000F94) - Data: 23 47 00 08  returns 0x00 (0001ms, 0733ms total)
T0EDC 006:631 JLINK_ReadMem (0x20000F84, 0x0004 Bytes, ...) -- CPU_ReadMem(4 bytes @ 0x20000F84) - Data: 30 61 00 08  returns 0x00 (0001ms, 0734ms total)
T0EDC 006:632 JLINK_ReadMem (0x20000F88, 0x0004 Bytes, ...) -- CPU_ReadMem(4 bytes @ 0x20000F88) - Data: 40 09 00 20  returns 0x00 (0001ms, 0735ms total)
T0EDC 006:633 JLINK_ReadMem (0x20000F8C, 0x0004 Bytes, ...) -- CPU_ReadMem(4 bytes @ 0x20000F8C) - Data: 00 00 00 00  returns 0x00 (0000ms, 0735ms total)
T0EDC 006:633 JLINK_ReadMem (0x20000F90, 0x0004 Bytes, ...) -- CPU_ReadMem(4 bytes @ 0x20000F90) - Data: 00 00 00 00  returns 0x00 (0001ms, 0736ms total)
T0EDC 006:634 JLINK_ReadMem (0x20000F9C, 0x0004 Bytes, ...) -- CPU_ReadMem(4 bytes @ 0x20000F9C) - Data: 45 5A 00 08  returns 0x00 (0001ms, 0737ms total)
T0EDC 006:635 JLINK_ReadMem (0x20000F98, 0x0004 Bytes, ...) -- CPU_ReadMem(4 bytes @ 0x20000F98) - Data: 30 61 00 08  returns 0x00 (0001ms, 0738ms total)
T0EDC 006:636 JLINK_ReadMem (0x40013800, 0x0028 Bytes, ...) -- CPU_ReadMem(40 bytes @ 0x40013800) - Data: AA AA AA AA AA AA AA AA AA AA AA AA AA AA AA AA ...  returns 0x01 (0002ms, 0740ms total)
T0EDC 006:638 JLINK_ReadMem (0x40013800, 0x0004 Bytes, ...) -- CPU_ReadMem(4 bytes @ 0x40013800) - Data: AA AA AA AA  returns 0x01 (0002ms, 0742ms total)
T0EDC 006:640 JLINK_ReadMem (0x40013804, 0x0004 Bytes, ...) -- CPU_ReadMem(4 bytes @ 0x40013804) - Data: 00 00 00 00  returns 0x00 (0001ms, 0743ms total)
T0EDC 006:641 JLINK_ReadMem (0x40013808, 0x0004 Bytes, ...) -- CPU_ReadMem(4 bytes @ 0x40013808) - Data: 00 00 00 00  returns 0x00 (0000ms, 0743ms total)
T0EDC 006:641 JLINK_ReadMem (0x4001380C, 0x0004 Bytes, ...) -- CPU_ReadMem(4 bytes @ 0x4001380C) - Data: A1 01 00 00  returns 0x00 (0001ms, 0744ms total)
T0EDC 006:642 JLINK_ReadMem (0x40013810, 0x0004 Bytes, ...) -- CPU_ReadMem(4 bytes @ 0x40013810) - Data: 00 00 00 00  returns 0x00 (0001ms, 0745ms total)
T0EDC 006:643 JLINK_ReadMem (0x40013814, 0x0004 Bytes, ...) -- CPU_ReadMem(4 bytes @ 0x40013814) - Data: 00 00 00 00  returns 0x00 (0000ms, 0745ms total)
T0EDC 006:643 JLINK_ReadMem (0x40013818, 0x0004 Bytes, ...) -- CPU_ReadMem(4 bytes @ 0x40013818) - Data: 00 00 00 00  returns 0x00 (0001ms, 0746ms total)
T0EDC 006:644 JLINK_ReadMem (0x4001381C, 0x0004 Bytes, ...) -- CPU_ReadMem(4 bytes @ 0x4001381C) - Data: D0 00 60 00  returns 0x00 (0000ms, 0746ms total)
T0EDC 006:644 JLINK_ReadMem (0x40013820, 0x0004 Bytes, ...) -- CPU_ReadMem(4 bytes @ 0x40013820) - Data: 00 00 00 00  returns 0x00 (0001ms, 0747ms total)
T0EDC 006:645 JLINK_ReadMem (0x40013824, 0x0004 Bytes, ...) -- CPU_ReadMem(4 bytes @ 0x40013824) - Data: 00 00 00 00  returns 0x00 (0001ms, 0748ms total)
T0EDC 006:646 JLINK_ReadMem (0x40013828, 0x0004 Bytes, ...) -- CPU_ReadMem(4 bytes @ 0x40013828) - Data: 00 00 00 00  returns 0x00 (0000ms, 0748ms total)
T0EDC 006:647 JLINK_ReadMem (0x40013000, 0x0020 Bytes, ...) -- CPU_ReadMem(32 bytes @ 0x40013000) - Data: 54 03 00 00 00 17 00 00 02 00 00 00 00 00 00 00 ...  returns 0x00 (0000ms, 0748ms total)
T0EDC 006:647 JLINK_ReadMem (0x40013020, 0x0004 Bytes, ...) -- CPU_ReadMem(4 bytes @ 0x40013020) - Data: 02 00 00 00  returns 0x00 (0001ms, 0749ms total)
T0EDC 006:651 JLINK_ReadMem (0x08003E92, 0x0002 Bytes, ...) -- Read from DA cache (2 bytes @ 0x08003E92) - Data: 01 24  returns 0x00 (0000ms, 0749ms total)
T0EDC 006:651 JLINK_ReadMem (0x08003E94, 0x003C Bytes, ...) -- Read from DA cache (60 bytes @ 0x08003E94) - Data: A4 03 09 4D 07 E0 0C 21 08 A0 01 F0 BB FE 21 46 ...  returns 0x00 (0000ms, 0749ms total)
T26D8 007:043 JLINK_Step() -- Read from DA cache (2 bytes @ 0x08003E9A) -- Simulated  returns 0x00 (0001ms, 0750ms total)
T26D8 007:044 JLINK_ReadReg(R15 (PC))  returns 0x08003E9C (0000ms, 0750ms total)
T26D8 007:044 JLINK_ReadReg(XPSR)  returns 0x21000000 (0000ms, 0750ms total)
T26D8 007:044 JLINK_Step() -- Read from DA cache (2 bytes @ 0x08003E9C) -- Simulated  returns 0x00 (0000ms, 0750ms total)
T26D8 007:044 JLINK_ReadReg(R15 (PC))  returns 0x08003E9E (0000ms, 0750ms total)
T26D8 007:044 JLINK_ReadReg(XPSR)  returns 0x21000000 (0000ms, 0750ms total)
T26D8 007:044 JLINK_SetBPEx(Addr = 0x08003EA2, Type = 0xFFFFFFF2)  returns 0x0000000A (0000ms, 0750ms total)
T26D8 007:044 JLINK_SetBPEx(Addr = 0x080033AC, Type = 0xFFFFFFF2)  returns 0x0000000B (0000ms, 0750ms total)
T26D8 007:044 JLINK_SetBPEx(Addr = 0x08003EAA, Type = 0xFFFFFFF2)  returns 0x0000000C (0000ms, 0750ms total)
T26D8 007:044 JLINK_Go() -- CPU_WriteMem(4 bytes @ 0xE0002000) -- CPU_WriteMem(4 bytes @ 0xE0002000) -- CPU_WriteMem(4 bytes @ 0xE0002000) -- CPU_ReadMem(4 bytes @ 0xE0001000) -- CPU_WriteMem(4 bytes @ 0xE0001000) -- CPU_WriteMem(4 bytes @ 0xE0002008) -- CPU_WriteMem(4 bytes @ 0xE0001004) (0005ms, 0755ms total)
T26D8 007:151 JLINK_IsHalted()  returns TRUE (0004ms, 0759ms total)
T26D8 007:155 JLINK_Halt()  returns 0x00 (0000ms, 0755ms total)
T26D8 007:155 JLINK_IsHalted()  returns TRUE (0000ms, 0755ms total)
T26D8 007:155 JLINK_IsHalted()  returns TRUE (0000ms, 0755ms total)
T26D8 007:155 JLINK_IsHalted()  returns TRUE (0000ms, 0755ms total)
T26D8 007:155 JLINK_ReadReg(R15 (PC))  returns 0x08003EA2 (0000ms, 0755ms total)
T26D8 007:155 JLINK_ReadReg(XPSR)  returns 0x61000000 (0000ms, 0755ms total)
T26D8 007:155 JLINK_ClrBPEx(BPHandle = 0x0000000A)  returns 0x00 (0000ms, 0755ms total)
T26D8 007:155 JLINK_ClrBPEx(BPHandle = 0x0000000B)  returns 0x00 (0000ms, 0755ms total)
T26D8 007:155 JLINK_ClrBPEx(BPHandle = 0x0000000C)  returns 0x00 (0000ms, 0755ms total)
T26D8 007:155 JLINK_ReadMemU32(0xE000ED30, 0x0001 Items, ...) -- CPU_ReadMem(4 bytes @ 0xE000ED30) - Data: 03 00 00 00  returns 0x01 (0001ms, 0756ms total)
T26D8 007:156 JLINK_ReadMemU32(0xE0001028, 0x0001 Items, ...) -- CPU_ReadMem(4 bytes @ 0xE0001028) - Data: 00 00 00 00  returns 0x01 (0001ms, 0757ms total)
T26D8 007:157 JLINK_ReadMemU32(0xE0001038, 0x0001 Items, ...) -- CPU_ReadMem(4 bytes @ 0xE0001038) - Data: 00 00 00 00  returns 0x01 (0001ms, 0758ms total)
T26D8 007:158 JLINK_ReadReg(R0)  returns 0x00000001 (0000ms, 0758ms total)
T26D8 007:158 JLINK_ReadReg(R1)  returns 0x00000040 (0000ms, 0758ms total)
T26D8 007:158 JLINK_ReadReg(R2)  returns 0x006000D0 (0000ms, 0758ms total)
T26D8 007:158 JLINK_ReadReg(R3)  returns 0x000000A5 (0000ms, 0758ms total)
T26D8 007:158 JLINK_ReadReg(R4)  returns 0x00004000 (0000ms, 0758ms total)
T26D8 007:158 JLINK_ReadReg(R5)  returns 0x00004000 (0000ms, 0758ms total)
T26D8 007:158 JLINK_ReadReg(R6)  returns 0x00000003 (0000ms, 0758ms total)
T26D8 007:158 JLINK_ReadReg(R7)  returns 0x48000000 (0000ms, 0758ms total)
T26D8 007:158 JLINK_ReadReg(R8)  returns 0xFFFFFFFF (0000ms, 0758ms total)
T26D8 007:158 JLINK_ReadReg(R9)  returns 0xFFFFFFFF (0000ms, 0758ms total)
T26D8 007:158 JLINK_ReadReg(R10)  returns 0x08006130 (0000ms, 0758ms total)
T26D8 007:158 JLINK_ReadReg(R11)  returns 0x08006130 (0000ms, 0758ms total)
T26D8 007:158 JLINK_ReadReg(R12)  returns 0x00000000 (0000ms, 0758ms total)
T26D8 007:158 JLINK_ReadReg(R13 (SP))  returns 0x20000F68 (0000ms, 0758ms total)
T26D8 007:158 JLINK_ReadReg(R14)  returns 0x08005C35 (0000ms, 0758ms total)
T26D8 007:158 JLINK_ReadReg(R15 (PC))  returns 0x08003EA2 (0000ms, 0758ms total)
T26D8 007:158 JLINK_ReadReg(XPSR)  returns 0x61000000 (0000ms, 0758ms total)
T26D8 007:158 JLINK_ReadReg(MSP)  returns 0x20000F68 (0000ms, 0758ms total)
T26D8 007:158 JLINK_ReadReg(PSP)  returns 0xFFFFFFFC (0000ms, 0758ms total)
T26D8 007:158 JLINK_ReadReg(CFBP)  returns 0x00000000 (0000ms, 0758ms total)
T0EDC 007:158 JLINK_ReadMem (0x20000F74, 0x0004 Bytes, ...) -- CPU_ReadMem(4 bytes @ 0x20000F74) - Data: 9B 3F 00 08  returns 0x00 (0001ms, 0759ms total)
T0EDC 007:159 JLINK_ReadMem (0x20000F68, 0x0004 Bytes, ...) -- CPU_ReadMem(4 bytes @ 0x20000F68) - Data: 01 00 00 00  returns 0x00 (0001ms, 0760ms total)
T0EDC 007:160 JLINK_ReadMem (0x20000F6C, 0x0004 Bytes, ...) -- CPU_ReadMem(4 bytes @ 0x20000F6C) - Data: 00 00 00 00  returns 0x00 (0001ms, 0761ms total)
T0EDC 007:161 JLINK_ReadMem (0x20000F70, 0x0004 Bytes, ...) -- CPU_ReadMem(4 bytes @ 0x20000F70) - Data: 03 00 00 00  returns 0x00 (0000ms, 0761ms total)
T0EDC 007:161 JLINK_ReadMem (0x20000F94, 0x0004 Bytes, ...) -- CPU_ReadMem(4 bytes @ 0x20000F94) - Data: 23 47 00 08  returns 0x00 (0001ms, 0762ms total)
T0EDC 007:162 JLINK_ReadMem (0x20000F84, 0x0004 Bytes, ...) -- CPU_ReadMem(4 bytes @ 0x20000F84) - Data: 30 61 00 08  returns 0x00 (0001ms, 0763ms total)
T0EDC 007:163 JLINK_ReadMem (0x20000F88, 0x0004 Bytes, ...) -- CPU_ReadMem(4 bytes @ 0x20000F88) - Data: 40 09 00 20  returns 0x00 (0000ms, 0763ms total)
T0EDC 007:163 JLINK_ReadMem (0x20000F8C, 0x0004 Bytes, ...) -- CPU_ReadMem(4 bytes @ 0x20000F8C) - Data: 00 00 00 00  returns 0x00 (0001ms, 0764ms total)
T0EDC 007:164 JLINK_ReadMem (0x20000F90, 0x0004 Bytes, ...) -- CPU_ReadMem(4 bytes @ 0x20000F90) - Data: 00 00 00 00  returns 0x00 (0001ms, 0765ms total)
T0EDC 007:165 JLINK_ReadMem (0x20000F9C, 0x0004 Bytes, ...) -- CPU_ReadMem(4 bytes @ 0x20000F9C) - Data: 45 5A 00 08  returns 0x00 (0000ms, 0765ms total)
T0EDC 007:165 JLINK_ReadMem (0x20000F98, 0x0004 Bytes, ...) -- CPU_ReadMem(4 bytes @ 0x20000F98) - Data: 30 61 00 08  returns 0x00 (0001ms, 0766ms total)
T0EDC 007:167 JLINK_ReadMem (0x40013800, 0x0028 Bytes, ...) -- CPU_ReadMem(40 bytes @ 0x40013800) - Data: AA AA AA AA AA AA AA AA AA AA AA AA AA AA AA AA ...  returns 0x01 (0001ms, 0767ms total)
T0EDC 007:168 JLINK_ReadMem (0x40013800, 0x0004 Bytes, ...) -- CPU_ReadMem(4 bytes @ 0x40013800) - Data: AA AA AA AA  returns 0x01 (0002ms, 0769ms total)
T0EDC 007:170 JLINK_ReadMem (0x40013804, 0x0004 Bytes, ...) -- CPU_ReadMem(4 bytes @ 0x40013804) - Data: 00 00 00 00  returns 0x00 (0001ms, 0770ms total)
T0EDC 007:171 JLINK_ReadMem (0x40013808, 0x0004 Bytes, ...) -- CPU_ReadMem(4 bytes @ 0x40013808) - Data: 00 00 00 00  returns 0x00 (0000ms, 0770ms total)
T0EDC 007:171 JLINK_ReadMem (0x4001380C, 0x0004 Bytes, ...) -- CPU_ReadMem(4 bytes @ 0x4001380C) - Data: A1 01 00 00  returns 0x00 (0001ms, 0771ms total)
T0EDC 007:172 JLINK_ReadMem (0x40013810, 0x0004 Bytes, ...) -- CPU_ReadMem(4 bytes @ 0x40013810) - Data: 00 00 00 00  returns 0x00 (0000ms, 0771ms total)
T0EDC 007:172 JLINK_ReadMem (0x40013814, 0x0004 Bytes, ...) -- CPU_ReadMem(4 bytes @ 0x40013814) - Data: 00 00 00 00  returns 0x00 (0001ms, 0772ms total)
T0EDC 007:173 JLINK_ReadMem (0x40013818, 0x0004 Bytes, ...) -- CPU_ReadMem(4 bytes @ 0x40013818) - Data: 00 00 00 00  returns 0x00 (0000ms, 0772ms total)
T0EDC 007:173 JLINK_ReadMem (0x4001381C, 0x0004 Bytes, ...) -- CPU_ReadMem(4 bytes @ 0x4001381C) - Data: D0 00 60 00  returns 0x00 (0001ms, 0773ms total)
T0EDC 007:174 JLINK_ReadMem (0x40013820, 0x0004 Bytes, ...) -- CPU_ReadMem(4 bytes @ 0x40013820) - Data: 00 00 00 00  returns 0x00 (0000ms, 0773ms total)
T0EDC 007:174 JLINK_ReadMem (0x40013824, 0x0004 Bytes, ...) -- CPU_ReadMem(4 bytes @ 0x40013824) - Data: 00 00 00 00  returns 0x00 (0001ms, 0774ms total)
T0EDC 007:175 JLINK_ReadMem (0x40013828, 0x0004 Bytes, ...) -- CPU_ReadMem(4 bytes @ 0x40013828) - Data: 0A 00 00 00  returns 0x00 (0000ms, 0774ms total)
T0EDC 007:178 JLINK_ReadMem (0x40013000, 0x0020 Bytes, ...) -- CPU_ReadMem(32 bytes @ 0x40013000) - Data: 54 03 00 00 00 17 00 00 02 00 00 00 00 00 00 00 ...  returns 0x00 (0001ms, 0775ms total)
T0EDC 007:179 JLINK_ReadMem (0x40013020, 0x0004 Bytes, ...) -- CPU_ReadMem(4 bytes @ 0x40013020) - Data: 02 00 00 00  returns 0x00 (0000ms, 0775ms total)
T0EDC 007:182 JLINK_ReadMem (0x08003E9A, 0x0002 Bytes, ...) -- CPU_ReadMem(64 bytes @ 0x08003E80) -- CPU_ReadMem(2 bytes @ 0x08003E9A) - Data: AA AA  returns 0x01 (0004ms, 0779ms total)
T0EDC 007:186 JLINK_ReadMem (0x08003E9C, 0x003C Bytes, ...) -- CPU_ReadMem(128 bytes @ 0x08003E80) -- Updating DA cache (128 bytes @ 0x08003E80) -- Read from DA cache (60 bytes @ 0x08003E9C) - Data: 08 A0 01 F0 BB FE 21 46 28 46 FE F7 B4 FD 00 F0 ...  returns 0x00 (0002ms, 0781ms total)
T26D8 007:506 JLINK_Step() -- Read from DA cache (2 bytes @ 0x08003EA2) -- CPU_ReadMem(4 bytes @ 0xE0001004) -- Simulated  returns 0x00 (0000ms, 0781ms total)
T26D8 007:506 JLINK_ReadReg(R15 (PC))  returns 0x08003EA4 (0000ms, 0781ms total)
T26D8 007:506 JLINK_ReadReg(XPSR)  returns 0x61000000 (0000ms, 0781ms total)
T26D8 007:506 JLINK_Step() -- Read from DA cache (2 bytes @ 0x08003EA4) -- Simulated  returns 0x00 (0000ms, 0781ms total)
T26D8 007:506 JLINK_ReadReg(R15 (PC))  returns 0x08003EA6 (0000ms, 0781ms total)
T26D8 007:506 JLINK_ReadReg(XPSR)  returns 0x61000000 (0000ms, 0781ms total)
T26D8 007:506 JLINK_SetBPEx(Addr = 0x080033AC, Type = 0xFFFFFFF2)  returns 0x0000000D (0000ms, 0781ms total)
T26D8 007:506 JLINK_SetBPEx(Addr = 0x08003EAA, Type = 0xFFFFFFF2)  returns 0x0000000E (0000ms, 0781ms total)
